Sample in Buffer,Sample in Window,TRIGGER,D_IBUF[7:0],A_OBUF[7:0],event_data_in_channel_halt,m_axis_status_tvalid,event_tlast_missing,m_axis_status_tready,event_frame_started,event_tlast_unexpected,event_status_channel_halt,event_data_out_channel_halt,fw[31:0]
Radix - UNSIGNED,UNSIGNED,UNSIGNED,UNSIGNED,UNSIGNED,HEX,HEX,HEX,HEX,HEX,HEX,HEX,HEX,SIGNED
0,0,0,85,153,0,0,0,0,0,0,0,0,120258560
1,1,0,85,153,0,0,0,0,0,0,0,0,120258560
2,2,0,85,153,0,0,0,0,0,0,0,0,120258560
3,3,0,85,153,0,0,0,0,0,0,0,0,120258560
4,4,0,85,153,0,0,0,0,0,0,0,0,120258560
5,5,0,85,153,0,0,0,0,0,0,0,0,120258560
6,6,0,85,153,0,0,0,0,0,0,0,0,120258560
7,7,0,85,153,0,0,0,0,0,0,0,0,120258560
8,8,0,85,153,0,0,0,0,0,0,0,0,120258560
9,9,0,85,153,0,0,0,0,0,0,0,0,120258560
10,10,0,85,153,0,0,0,0,0,0,0,0,120258560
11,11,0,85,148,0,0,0,0,0,0,0,0,120258560
12,12,0,85,148,0,0,0,0,0,0,0,0,120258560
13,13,0,85,148,0,0,0,0,0,0,0,0,120258560
14,14,0,85,148,0,0,0,0,0,0,0,0,120258560
15,15,0,85,148,0,0,0,0,0,0,0,0,120258560
16,16,0,85,148,0,0,0,0,0,0,0,0,120258560
17,17,0,85,148,0,0,0,0,0,0,0,0,120258560
18,18,0,85,148,0,0,0,0,0,0,0,0,120258560
19,19,0,85,148,0,0,0,0,0,0,0,0,120258560
20,20,0,85,148,0,0,0,0,0,0,0,0,120258560
21,21,0,85,148,0,0,0,0,0,0,0,0,120258560
22,22,0,85,148,0,0,0,0,0,0,0,0,120258560
23,23,0,85,148,0,0,0,0,0,0,0,0,120258560
24,24,0,85,148,0,0,0,0,0,0,0,0,120258560
25,25,0,85,148,0,0,0,0,0,0,0,0,120258560
26,26,0,85,148,0,0,0,0,0,0,0,0,120258560
27,27,0,85,148,0,0,0,0,0,0,0,0,120258560
28,28,0,85,148,0,0,0,0,0,0,0,0,120258560
29,29,0,85,148,0,0,0,0,0,0,0,0,120258560
30,30,0,85,148,0,0,0,0,0,0,0,0,120258560
31,31,0,85,142,0,0,0,0,0,0,0,0,120258560
32,32,0,76,142,0,0,0,0,0,0,0,0,120258560
33,33,0,76,142,0,0,0,0,0,0,0,0,120258560
34,34,0,76,142,0,0,0,0,0,0,0,0,120258560
35,35,0,76,142,0,0,0,0,0,0,0,0,120258560
36,36,0,76,142,0,0,0,0,0,0,0,0,120258560
37,37,0,76,142,0,0,0,0,0,0,0,0,120258560
38,38,0,76,142,0,0,0,0,0,0,0,0,120258560
39,39,0,76,142,0,0,0,0,0,0,0,0,120258560
40,40,0,76,142,0,0,0,0,0,0,0,0,120258560
41,41,0,76,142,0,0,0,0,0,0,0,0,120258560
42,42,0,76,142,0,0,0,0,0,0,0,0,120258560
43,43,0,76,142,0,0,0,0,0,0,0,0,120258560
44,44,0,76,142,0,0,0,0,0,0,0,0,120258560
45,45,0,76,142,0,0,0,0,0,0,0,0,120258560
46,46,0,76,142,0,0,0,0,0,0,0,0,120258560
47,47,0,76,142,0,0,0,0,0,0,0,0,120258560
48,48,0,76,142,0,0,0,0,0,0,0,0,120258560
49,49,0,76,142,0,0,0,0,0,0,0,0,120258560
50,50,0,76,142,0,0,0,0,0,0,0,0,120258560
51,51,0,76,135,0,0,0,0,0,0,0,0,120258560
52,52,0,76,135,0,0,0,0,0,0,0,0,120258560
53,53,0,76,135,0,0,0,0,0,0,0,0,120258560
54,54,0,76,135,0,0,0,0,0,0,0,0,120258560
55,55,0,76,135,0,0,0,0,0,0,0,0,120258560
56,56,0,76,135,0,0,0,0,0,0,0,0,120258560
57,57,0,76,135,0,0,0,0,0,0,0,0,120258560
58,58,0,76,135,0,0,0,0,0,0,0,0,120258560
59,59,0,76,135,0,0,0,0,0,0,0,0,120258560
60,60,0,76,135,0,0,0,0,0,0,0,0,120258560
61,61,0,76,135,0,0,0,0,0,0,0,0,120258560
62,62,0,76,135,0,0,0,0,0,0,0,0,120258560
63,63,0,76,135,0,0,0,0,0,0,0,0,120258560
64,64,0,76,135,0,0,0,0,0,0,0,0,120258560
65,65,0,76,135,0,0,0,0,0,0,0,0,120258560
66,66,0,76,135,0,0,0,0,0,0,0,0,120258560
67,67,0,76,135,0,0,0,0,0,0,0,0,120258560
68,68,0,76,135,0,0,0,0,0,0,0,0,120258560
69,69,0,76,135,0,0,0,0,0,0,0,0,120258560
70,70,0,76,135,0,0,0,0,0,0,0,0,120258560
71,71,0,76,128,0,0,0,0,0,0,0,0,120258560
72,72,0,76,128,0,0,0,0,0,0,0,0,120258560
73,73,0,76,128,0,0,0,0,0,0,0,0,120258560
74,74,0,76,128,0,0,0,0,0,0,0,0,120258560
75,75,0,76,128,0,0,0,0,0,0,0,0,120258560
76,76,0,76,128,0,0,0,0,0,0,0,0,120258560
77,77,0,76,128,0,0,0,0,0,0,0,0,120258560
78,78,0,76,128,0,0,0,0,0,0,0,0,120258560
79,79,0,76,128,0,0,0,0,0,0,0,0,120258560
80,80,0,76,128,0,0,0,0,0,0,0,0,120258560
81,81,0,76,128,0,0,0,0,0,0,0,0,120258560
82,82,0,76,128,0,0,0,0,0,0,0,0,120258560
83,83,0,76,128,0,0,0,0,0,0,0,0,120258560
84,84,0,76,128,0,0,0,0,0,0,0,0,120258560
85,85,0,76,128,0,0,0,0,0,0,0,0,120258560
86,86,0,76,128,0,0,0,0,0,0,0,0,120258560
87,87,0,76,128,0,0,0,0,0,0,0,0,120258560
88,88,0,76,128,0,0,0,0,0,0,0,0,120258560
89,89,0,76,128,0,0,0,0,0,0,0,0,120258560
90,90,0,76,128,0,0,0,0,0,0,0,0,120258560
91,91,0,76,121,0,0,0,0,0,0,0,0,120258560
92,92,0,76,121,0,0,0,0,0,0,0,0,120258560
93,93,0,76,121,0,0,0,0,0,0,0,0,120258560
94,94,0,76,121,0,0,0,0,0,0,0,0,120258560
95,95,0,76,121,0,0,0,0,0,0,0,0,120258560
96,96,0,76,121,0,0,0,0,0,0,0,0,120258560
97,97,0,76,121,0,0,0,0,0,0,0,0,120258560
98,98,0,76,121,0,0,0,0,0,0,0,0,120258560
99,99,0,76,121,0,0,0,0,0,0,0,0,120258560
100,100,0,76,121,0,0,0,0,0,0,0,0,120258560
101,101,0,76,121,0,0,0,0,0,0,0,0,120258560
102,102,0,76,121,0,0,0,0,0,0,0,0,120258560
103,103,0,76,121,0,0,0,0,0,0,0,0,120258560
104,104,0,76,121,0,0,0,0,0,0,0,0,120258560
105,105,0,76,121,0,0,0,0,0,0,0,0,120258560
106,106,0,76,121,0,0,0,0,0,0,0,0,120258560
107,107,0,76,121,0,0,0,0,0,0,0,0,120258560
108,108,0,76,121,0,0,0,0,0,0,0,0,120258560
109,109,0,76,121,0,0,0,0,0,0,0,0,120258560
110,110,0,76,121,0,0,0,0,0,0,0,0,120258560
111,111,0,76,115,0,0,0,0,0,0,0,0,120258560
112,112,0,76,115,0,0,0,0,0,0,0,0,120258560
113,113,0,76,115,0,0,0,0,0,0,0,0,120258560
114,114,0,76,115,0,0,0,0,0,0,0,0,120258560
115,115,0,76,115,0,0,0,0,0,0,0,0,120258560
116,116,0,76,115,0,0,0,0,0,0,0,0,120258560
117,117,0,76,115,0,0,0,0,0,0,0,0,120258560
118,118,0,76,115,0,0,0,0,0,0,0,0,120258560
119,119,0,76,115,0,0,0,0,0,0,0,0,120258560
120,120,0,76,115,0,0,0,0,0,0,0,0,120258560
121,121,0,76,115,0,0,0,0,0,0,0,0,120258560
122,122,0,76,115,0,0,0,0,0,0,0,0,120258560
123,123,0,76,115,0,0,0,0,0,0,0,0,120258560
124,124,0,76,115,0,0,0,0,0,0,0,0,120258560
125,125,0,76,115,0,0,0,0,0,0,0,0,120258560
126,126,0,76,115,0,0,0,0,0,0,0,0,120258560
127,127,0,76,115,0,0,0,0,0,0,0,0,120258560
128,128,0,76,115,0,0,0,0,0,0,0,0,120258560
129,129,0,76,115,0,0,0,0,0,0,0,0,120258560
130,130,0,76,115,0,0,0,0,0,0,0,0,120258560
131,131,0,76,108,0,0,0,0,0,0,0,0,120258560
132,132,0,101,108,0,0,0,0,0,0,0,0,120258560
133,133,0,101,108,0,0,0,0,0,0,0,0,120258560
134,134,0,101,108,0,0,0,0,0,0,0,0,120258560
135,135,0,101,108,0,0,0,0,0,0,0,0,120258560
136,136,0,101,108,0,0,0,0,0,0,0,0,120258560
137,137,0,101,108,0,0,0,0,0,0,0,0,120258560
138,138,0,101,108,0,0,0,0,0,0,0,0,120258560
139,139,0,101,108,0,0,0,0,0,0,0,0,120258560
140,140,0,101,108,0,0,0,0,0,0,0,0,120258560
141,141,0,101,108,0,0,0,0,0,0,0,0,120258560
142,142,0,101,108,0,0,0,0,0,0,0,0,120258560
143,143,0,101,108,0,0,0,0,0,0,0,0,120258560
144,144,0,101,108,0,0,0,0,0,0,0,0,120258560
145,145,0,101,108,0,0,0,0,0,0,0,0,120258560
146,146,0,101,108,0,0,0,0,0,0,0,0,120258560
147,147,0,101,108,0,0,0,0,0,0,0,0,120258560
148,148,0,101,108,0,0,0,0,0,0,0,0,120258560
149,149,0,101,108,0,0,0,0,0,0,0,0,120258560
150,150,0,101,108,0,0,0,0,0,0,0,0,120258560
151,151,0,101,103,0,0,0,0,0,0,0,0,120258560
152,152,0,101,103,0,0,0,0,0,0,0,0,120258560
153,153,0,101,103,0,0,0,0,0,0,0,0,120258560
154,154,0,101,103,0,0,0,0,0,0,0,0,120258560
155,155,0,101,103,0,0,0,0,0,0,0,0,120258560
156,156,0,101,103,0,0,0,0,0,0,0,0,120258560
157,157,0,101,103,0,0,0,0,0,0,0,0,120258560
158,158,0,101,103,0,0,0,0,0,0,0,0,120258560
159,159,0,101,103,0,0,0,0,0,0,0,0,120258560
160,160,0,101,103,0,0,0,0,0,0,0,0,120258560
161,161,0,101,103,0,0,0,0,0,0,0,0,120258560
162,162,0,101,103,0,0,0,0,0,0,0,0,120258560
163,163,0,101,103,0,0,0,0,0,0,0,0,120258560
164,164,0,101,103,0,0,0,0,0,0,0,0,120258560
165,165,0,101,103,0,0,0,0,0,0,0,0,120258560
166,166,0,101,103,0,0,0,0,0,0,0,0,120258560
167,167,0,101,103,0,0,0,0,0,0,0,0,120258560
168,168,0,101,103,0,0,0,0,0,0,0,0,120258560
169,169,0,101,103,0,0,0,0,0,0,0,0,120258560
170,170,0,101,103,0,0,0,0,0,0,0,0,120258560
171,171,0,101,98,0,0,0,0,0,0,0,0,120258560
172,172,0,101,98,0,0,0,0,0,0,0,0,120258560
173,173,0,101,98,0,0,0,0,0,0,0,0,120258560
174,174,0,101,98,0,0,0,0,0,0,0,0,120258560
175,175,0,101,98,0,0,0,0,0,0,0,0,120258560
176,176,0,101,98,0,0,0,0,0,0,0,0,120258560
177,177,0,101,98,0,0,0,0,0,0,0,0,120258560
178,178,0,101,98,0,0,0,0,0,0,0,0,120258560
179,179,0,101,98,0,0,0,0,0,0,0,0,120258560
180,180,0,101,98,0,0,0,0,0,0,0,0,120258560
181,181,0,101,98,0,0,0,0,0,0,0,0,120258560
182,182,0,101,98,0,0,0,0,0,0,0,0,120258560
183,183,0,101,98,0,0,0,0,0,0,0,0,120258560
184,184,0,101,98,0,0,0,0,0,0,0,0,120258560
185,185,0,101,98,0,0,0,0,0,0,0,0,120258560
186,186,0,101,98,0,0,0,0,0,0,0,0,120258560
187,187,0,101,98,0,0,0,0,0,0,0,0,120258560
188,188,0,101,98,0,0,0,0,0,0,0,0,120258560
189,189,0,101,98,0,0,0,0,0,0,0,0,120258560
190,190,0,101,98,0,0,0,0,0,0,0,0,120258560
191,191,0,101,93,0,0,0,0,0,0,0,0,120258560
192,192,0,101,93,0,0,0,0,0,0,0,0,120258560
193,193,0,101,93,0,0,0,0,0,0,0,0,120258560
194,194,0,101,93,0,0,0,0,0,0,0,0,120258560
195,195,0,101,93,0,0,0,0,0,0,0,0,120258560
196,196,0,101,93,0,0,0,0,0,0,0,0,120258560
197,197,0,101,93,0,0,0,0,0,0,0,0,120258560
198,198,0,101,93,0,0,0,0,0,0,0,0,120258560
199,199,0,101,93,0,0,0,0,0,0,0,0,120258560
200,200,0,101,93,0,0,0,0,0,0,0,0,120258560
201,201,0,101,93,0,0,0,0,0,0,0,0,120258560
202,202,0,101,93,0,0,0,0,0,0,0,0,120258560
203,203,0,101,93,0,0,0,0,0,0,0,0,120258560
204,204,0,101,93,0,0,0,0,0,0,0,0,120258560
205,205,0,101,93,0,0,0,0,0,0,0,0,120258560
206,206,0,101,93,0,0,0,0,0,0,0,0,120258560
207,207,0,101,93,0,0,0,0,0,0,0,0,120258560
208,208,0,101,93,0,0,0,0,0,0,0,0,120258560
209,209,0,101,93,0,0,0,0,0,0,0,0,120258560
210,210,0,101,93,0,0,0,0,0,0,0,0,120258560
211,211,0,101,91,0,0,0,0,0,0,0,0,120258560
212,212,0,101,91,0,0,0,0,0,0,0,0,120258560
213,213,0,101,91,0,0,0,0,0,0,0,0,120258560
214,214,0,101,91,0,0,0,0,0,0,0,0,120258560
215,215,0,101,91,0,0,0,0,0,0,0,0,120258560
216,216,0,101,91,0,0,0,0,0,0,0,0,120258560
217,217,0,101,91,0,0,0,0,0,0,0,0,120258560
218,218,0,101,91,0,0,0,0,0,0,0,0,120258560
219,219,0,101,91,0,0,0,0,0,0,0,0,120258560
220,220,0,101,91,0,0,0,0,0,0,0,0,120258560
221,221,0,101,91,0,0,0,0,0,0,0,0,120258560
222,222,0,101,91,0,0,0,0,0,0,0,0,120258560
223,223,0,101,91,0,0,0,0,0,0,0,0,120258560
224,224,0,101,91,0,0,0,0,0,0,0,0,120258560
225,225,0,101,91,0,0,0,0,0,0,0,0,120258560
226,226,0,101,91,0,0,0,0,0,0,0,0,120258560
227,227,0,101,91,0,0,0,0,0,0,0,0,120258560
228,228,0,101,91,0,0,0,0,0,0,0,0,120258560
229,229,0,101,91,0,0,0,0,0,0,0,0,120258560
230,230,0,101,91,0,0,0,0,0,0,0,0,120258560
231,231,0,101,89,0,0,0,0,0,0,0,0,120258560
232,232,0,143,89,0,0,0,0,0,0,0,0,120258560
233,233,0,143,89,0,0,0,0,0,0,0,0,120258560
234,234,0,143,89,0,0,0,0,0,0,0,0,120258560
235,235,0,143,89,0,0,0,0,0,0,0,0,120258560
236,236,0,143,89,0,0,0,0,0,0,0,0,120258560
237,237,0,143,89,0,0,0,0,0,0,0,0,120258560
238,238,0,143,89,0,0,0,0,0,0,0,0,120258560
239,239,0,143,89,0,0,0,0,0,0,0,0,120258560
240,240,0,143,89,0,0,0,0,0,0,0,0,120258560
241,241,0,143,89,0,0,0,0,0,0,0,0,120258560
242,242,0,143,89,0,0,0,0,0,0,0,0,120258560
243,243,0,143,89,0,0,0,0,0,0,0,0,120258560
244,244,0,143,89,0,0,0,0,0,0,0,0,120258560
245,245,0,143,89,0,0,0,0,0,0,0,0,120258560
246,246,0,143,89,0,0,0,0,0,0,0,0,120258560
247,247,0,143,89,0,0,0,0,0,0,0,0,120258560
248,248,0,143,89,0,0,0,0,0,0,0,0,120258560
249,249,0,143,89,0,0,0,0,0,0,0,0,120258560
250,250,0,143,89,0,0,0,0,0,0,0,0,120258560
251,251,0,143,88,0,0,0,0,0,0,0,0,120258560
252,252,0,143,88,0,0,0,0,0,0,0,0,120258560
253,253,0,143,88,0,0,0,0,0,0,0,0,120258560
254,254,0,143,88,0,0,0,0,0,0,0,0,120258560
255,255,0,143,88,0,0,0,0,0,0,0,0,120258560
256,256,0,143,88,0,0,0,0,0,0,0,0,120258560
257,257,0,143,88,0,0,0,0,0,0,0,0,120258560
258,258,0,143,88,0,0,0,0,0,0,0,0,120258560
259,259,0,143,88,0,0,0,0,0,0,0,0,120258560
260,260,0,143,88,0,0,0,0,0,0,0,0,120258560
261,261,0,143,88,0,0,0,0,0,0,0,0,120258560
262,262,0,143,88,0,0,0,0,0,0,0,0,120258560
263,263,0,143,88,0,0,0,0,0,0,0,0,120258560
264,264,0,143,88,0,0,0,0,0,0,0,0,120258560
265,265,0,143,88,0,0,0,0,0,0,0,0,120258560
266,266,0,143,88,0,0,0,0,0,0,0,0,120258560
267,267,0,143,88,0,0,0,0,0,0,0,0,120258560
268,268,0,143,88,0,0,0,0,0,0,0,0,120258560
269,269,0,143,88,0,0,0,0,0,0,0,0,120258560
270,270,0,143,88,0,0,0,0,0,0,0,0,120258560
271,271,0,143,89,0,0,0,0,0,0,0,0,120258560
272,272,0,143,89,0,0,0,0,0,0,0,0,120258560
273,273,0,143,89,0,0,0,0,0,0,0,0,120258560
274,274,0,143,89,0,0,0,0,0,0,0,0,120258560
275,275,0,143,89,0,0,0,0,0,0,0,0,120258560
276,276,0,143,89,0,0,0,0,0,0,0,0,120258560
277,277,0,143,89,0,0,0,0,0,0,0,0,120258560
278,278,0,143,89,0,0,0,0,0,0,0,0,120258560
279,279,0,143,89,0,0,0,0,0,0,0,0,120258560
280,280,0,143,89,0,0,0,0,0,0,0,0,120258560
281,281,0,143,89,0,0,0,0,0,0,0,0,120258560
282,282,0,143,89,0,0,0,0,0,0,0,0,120258560
283,283,0,143,89,0,0,0,0,0,0,0,0,120258560
284,284,0,143,89,0,0,0,0,0,0,0,0,120258560
285,285,0,143,89,0,0,0,0,0,0,0,0,120258560
286,286,0,143,89,0,0,0,0,0,0,0,0,120258560
287,287,0,143,89,0,0,0,0,0,0,0,0,120258560
288,288,0,143,89,0,0,0,0,0,0,0,0,120258560
289,289,0,143,89,0,0,0,0,0,0,0,0,120258560
290,290,0,143,89,0,0,0,0,0,0,0,0,120258560
291,291,0,143,91,0,0,0,0,0,0,0,0,120258560
292,292,0,143,91,0,0,0,0,0,0,0,0,120258560
293,293,0,143,91,0,0,0,0,0,0,0,0,120258560
294,294,0,143,91,0,0,0,0,0,0,0,0,120258560
295,295,0,143,91,0,0,0,0,0,0,0,0,120258560
296,296,0,143,91,0,0,0,0,0,0,0,0,120258560
297,297,0,143,91,0,0,0,0,0,0,0,0,120258560
298,298,0,143,91,0,0,0,0,0,0,0,0,120258560
299,299,0,143,91,0,0,0,0,0,0,0,0,120258560
300,300,0,143,91,0,0,0,0,0,0,0,0,120258560
301,301,0,143,91,0,0,0,0,0,0,0,0,120258560
302,302,0,143,91,0,0,0,0,0,0,0,0,120258560
303,303,0,143,91,0,0,0,0,0,0,0,0,120258560
304,304,0,143,91,0,0,0,0,0,0,0,0,120258560
305,305,0,143,91,0,0,0,0,0,0,0,0,120258560
306,306,0,143,91,0,0,0,0,0,0,0,0,120258560
307,307,0,143,91,0,0,0,0,0,0,0,0,120258560
308,308,0,143,91,0,0,0,0,0,0,0,0,120258560
309,309,0,143,91,0,0,0,0,0,0,0,0,120258560
310,310,0,143,91,0,0,0,0,0,0,0,0,120258560
311,311,0,143,93,0,0,0,0,0,0,0,0,120258560
312,312,0,143,93,0,0,0,0,0,0,0,0,120258560
313,313,0,143,93,0,0,0,0,0,0,0,0,120258560
314,314,0,143,93,0,0,0,0,0,0,0,0,120258560
315,315,0,143,93,0,0,0,0,0,0,0,0,120258560
316,316,0,143,93,0,0,0,0,0,0,0,0,120258560
317,317,0,143,93,0,0,0,0,0,0,0,0,120258560
318,318,0,143,93,0,0,0,0,0,0,0,0,120258560
319,319,0,143,93,0,0,0,0,0,0,0,0,120258560
320,320,0,143,93,0,0,0,0,0,0,0,0,120258560
321,321,0,143,93,0,0,0,0,0,0,0,0,120258560
322,322,0,143,93,0,0,0,0,0,0,0,0,120258560
323,323,0,143,93,0,0,0,0,0,0,0,0,120258560
324,324,0,143,93,0,0,0,0,0,0,0,0,120258560
325,325,0,143,93,0,0,0,0,0,0,0,0,120258560
326,326,0,143,93,0,0,0,0,0,0,0,0,120258560
327,327,0,143,93,0,0,0,0,0,0,0,0,120258560
328,328,0,143,93,0,0,0,0,0,0,0,0,120258560
329,329,0,143,93,0,0,0,0,0,0,0,0,120258560
330,330,0,143,93,0,0,0,0,0,0,0,0,120258560
331,331,0,143,98,0,0,0,0,0,0,0,0,120258560
332,332,0,171,98,0,0,0,0,0,0,0,0,120258560
333,333,0,171,98,0,0,0,0,0,0,0,0,120258560
334,334,0,171,98,0,0,0,0,0,0,0,0,120258560
335,335,0,171,98,0,0,0,0,0,0,0,0,120258560
336,336,0,171,98,0,0,0,0,0,0,0,0,120258560
337,337,0,171,98,0,0,0,0,0,0,0,0,120258560
338,338,0,171,98,0,0,0,0,0,0,0,0,120258560
339,339,0,171,98,0,0,0,0,0,0,0,0,120258560
340,340,0,171,98,0,0,0,0,0,0,0,0,120258560
341,341,0,171,98,0,0,0,0,0,0,0,0,120258560
342,342,0,171,98,0,0,0,0,0,0,0,0,120258560
343,343,0,171,98,0,0,0,0,0,0,0,0,120258560
344,344,0,171,98,0,0,0,0,0,0,0,0,120258560
345,345,0,171,98,0,0,0,0,0,0,0,0,120258560
346,346,0,171,98,0,0,0,0,0,0,0,0,120258560
347,347,0,171,98,0,0,0,0,0,0,0,0,120258560
348,348,0,171,98,0,0,0,0,0,0,0,0,120258560
349,349,0,171,98,0,0,0,0,0,0,0,0,120258560
350,350,0,171,98,0,0,0,0,0,0,0,0,120258560
351,351,0,171,102,0,0,0,0,0,0,0,0,120258560
352,352,0,171,102,0,0,0,0,0,0,0,0,120258560
353,353,0,171,102,0,0,0,0,0,0,0,0,120258560
354,354,0,171,102,0,0,0,0,0,0,0,0,120258560
355,355,0,171,102,0,0,0,0,0,0,0,0,120258560
356,356,0,171,102,0,0,0,0,0,0,0,0,120258560
357,357,0,171,102,0,0,0,0,0,0,0,0,120258560
358,358,0,171,102,0,0,0,0,0,0,0,0,120258560
359,359,0,171,102,0,0,0,0,0,0,0,0,120258560
360,360,0,171,102,0,0,0,0,0,0,0,0,120258560
361,361,0,171,102,0,0,0,0,0,0,0,0,120258560
362,362,0,171,102,0,0,0,0,0,0,0,0,120258560
363,363,0,171,102,0,0,0,0,0,0,0,0,120258560
364,364,0,171,102,0,0,0,0,0,0,0,0,120258560
365,365,0,171,102,0,0,0,0,0,0,0,0,120258560
366,366,0,171,102,0,0,0,0,0,0,0,0,120258560
367,367,0,171,102,0,0,0,0,0,0,0,0,120258560
368,368,0,171,102,0,0,0,0,0,0,0,0,120258560
369,369,0,171,102,0,0,0,0,0,0,0,0,120258560
370,370,0,171,102,0,0,0,0,0,0,0,0,120258560
371,371,0,171,108,0,0,0,0,0,0,0,0,120258560
372,372,0,171,108,0,0,0,0,0,0,0,0,120258560
373,373,0,171,108,0,0,0,0,0,0,0,0,120258560
374,374,0,171,108,0,0,0,0,0,0,0,0,120258560
375,375,0,171,108,0,0,0,0,0,0,0,0,120258560
376,376,0,171,108,0,0,0,0,0,0,0,0,120258560
377,377,0,171,108,0,0,0,0,0,0,0,0,120258560
378,378,0,171,108,0,0,0,0,0,0,0,0,120258560
379,379,0,171,108,0,0,0,0,0,0,0,0,120258560
380,380,0,171,108,0,0,0,0,0,0,0,0,120258560
381,381,0,171,108,0,0,0,0,0,0,0,0,120258560
382,382,0,171,108,0,0,0,0,0,0,0,0,120258560
383,383,0,171,108,0,0,0,0,0,0,0,0,120258560
384,384,0,171,108,0,0,0,0,0,0,0,0,120258560
385,385,0,171,108,0,0,0,0,0,0,0,0,120258560
386,386,0,171,108,0,0,0,0,0,0,0,0,120258560
387,387,0,171,108,0,0,0,0,0,0,0,0,120258560
388,388,0,171,108,0,0,0,0,0,0,0,0,120258560
389,389,0,171,108,0,0,0,0,0,0,0,0,120258560
390,390,0,171,108,0,0,0,0,0,0,0,0,120258560
391,391,0,171,115,0,0,0,0,0,0,0,0,120258560
392,392,0,171,115,0,0,0,0,0,0,0,0,120258560
393,393,0,171,115,0,0,0,0,0,0,0,0,120258560
394,394,0,171,115,0,0,0,0,0,0,0,0,120258560
395,395,0,171,115,0,0,0,0,0,0,0,0,120258560
396,396,0,171,115,0,0,0,0,0,0,0,0,120258560
397,397,0,171,115,0,0,0,0,0,0,0,0,120258560
398,398,0,171,115,0,0,0,0,0,0,0,0,120258560
399,399,0,171,115,0,0,0,0,0,0,0,0,120258560
400,400,0,171,115,0,0,0,0,0,0,0,0,120258560
401,401,0,171,115,0,0,0,0,0,0,0,0,120258560
402,402,0,171,115,0,0,0,0,0,0,0,0,120258560
403,403,0,171,115,0,0,0,0,0,0,0,0,120258560
404,404,0,171,115,0,0,0,0,0,0,0,0,120258560
405,405,0,171,115,0,0,0,0,0,0,0,0,120258560
406,406,0,171,115,0,0,0,0,0,0,0,0,120258560
407,407,0,171,115,0,0,0,0,0,0,0,0,120258560
408,408,0,171,115,0,0,0,0,0,0,0,0,120258560
409,409,0,171,115,0,0,0,0,0,0,0,0,120258560
410,410,0,171,115,0,0,0,0,0,0,0,0,120258560
411,411,0,171,121,0,0,0,0,0,0,0,0,120258560
412,412,0,171,121,0,0,0,0,0,0,0,0,120258560
413,413,0,171,121,0,0,0,0,0,0,0,0,120258560
414,414,0,171,121,0,0,0,0,0,0,0,0,120258560
415,415,0,171,121,0,0,0,0,0,0,0,0,120258560
416,416,0,171,121,0,0,0,0,0,0,0,0,120258560
417,417,0,171,121,0,0,0,0,0,0,0,0,120258560
418,418,0,171,121,0,0,0,0,0,0,0,0,120258560
419,419,0,171,121,0,0,0,0,0,0,0,0,120258560
420,420,0,171,121,0,0,0,0,0,0,0,0,120258560
421,421,0,171,121,0,0,0,0,0,0,0,0,120258560
422,422,0,171,121,0,0,0,0,0,0,0,0,120258560
423,423,0,171,121,0,0,0,0,0,0,0,0,120258560
424,424,0,171,121,0,0,0,0,0,0,0,0,120258560
425,425,0,171,121,0,0,0,0,0,0,0,0,120258560
426,426,0,171,121,0,0,0,0,0,0,0,0,120258560
427,427,0,171,121,0,0,0,0,0,0,0,0,120258560
428,428,0,171,121,0,0,0,0,0,0,0,0,120258560
429,429,0,171,121,0,0,0,0,0,0,0,0,120258560
430,430,0,171,121,0,0,0,0,0,0,0,0,120258560
431,431,0,171,128,0,0,0,0,0,0,0,0,120258560
432,432,0,165,128,0,0,0,0,0,0,0,0,120258560
433,433,0,165,128,0,0,0,0,0,0,0,0,120258560
434,434,0,165,128,0,0,0,0,0,0,0,0,120258560
435,435,0,165,128,0,0,0,0,0,0,0,0,120258560
436,436,0,165,128,0,0,0,0,0,0,0,0,120258560
437,437,0,165,128,0,0,0,0,0,0,0,0,120258560
438,438,0,165,128,0,0,0,0,0,0,0,0,120258560
439,439,0,165,128,0,0,0,0,0,0,0,0,120258560
440,440,0,165,128,0,0,0,0,0,0,0,0,120258560
441,441,0,165,128,0,0,0,0,0,0,0,0,120258560
442,442,0,165,128,0,0,0,0,0,0,0,0,120258560
443,443,0,165,128,0,0,0,0,0,0,0,0,120258560
444,444,0,165,128,0,0,0,0,0,0,0,0,120258560
445,445,0,165,128,0,0,0,0,0,0,0,0,120258560
446,446,0,165,128,0,0,0,0,0,0,0,0,120258560
447,447,0,165,128,0,0,0,0,0,0,0,0,120258560
448,448,0,165,128,0,0,0,0,0,0,0,0,120258560
449,449,0,165,128,0,0,0,0,0,0,0,0,120258560
450,450,0,165,128,0,0,0,0,0,0,0,0,120258560
451,451,0,165,135,0,0,0,0,0,0,0,0,120258560
452,452,0,165,135,0,0,0,0,0,0,0,0,120258560
453,453,0,165,135,0,0,0,0,0,0,0,0,120258560
454,454,0,165,135,0,0,0,0,0,0,0,0,120258560
455,455,0,165,135,0,0,0,0,0,0,0,0,120258560
456,456,0,165,135,0,0,0,0,0,0,0,0,120258560
457,457,0,165,135,0,0,0,0,0,0,0,0,120258560
